# HZ S RI R 50
50000 0.998497 -0.003239
30049000 -0.551747 -0.811447
60049000 -0.467167 0.804439
90048000 0.94107 -0.082512
120048000 -0.584036 -0.724441
150047000 -0.352739 0.780761
180047000 0.871957 -0.106365
210046000 -0.57479 -0.687083
240046000 -0.287507 0.850462
270045000 0.664161 -0.365526
300045000 -0.555943 -0.598221
330044000 -0.163593 0.774489
360044000 0.578013 -0.225825
390043000 -0.513467 -0.567096
420043000 -0.133606 0.80077
450042000 0.512127 -0.447928
480042000 -0.263814 0.003782
510041000 -0.334857 0.519143
540041000 0.389772 -0.250673
570040000 -0.110578 -0.152098
600040000 -0.352616 0.133562
630039000 0.398015 0.308051
660039000 -0.005502 -0.561381
690038000 -0.546141 0.29555
720038000 0.537869 0.322265
750037000 -0.042759 -0.643692
780037000 -0.578601 0.352893
810036000 0.589788 0.308511
840036000 -0.084005 -0.655453
870035000 -0.574435 0.382159
900035000 0.621393 0.27627
930034000 -0.119019 -0.656622
960034000 -0.565277 0.414469
990033000 0.635351 0.254445
1020033000 -0.134834 -0.671486
1050032000 -0.553213 0.457583
1080032000 0.664768 0.21695
1110031000 -0.180281 -0.677002
1140031000 -0.550103 0.473242
1170030000 0.673177 0.19725
1200030000 -0.189594 -0.661413
1230029000 -0.512109 0.487537
1260029000 0.64697 0.158666
1290028000 -0.155814 -0.597199
1320028000 -0.505153 0.428151
1350027000 0.585954 0.172452
1380027000 -0.094337 -0.558861
1410026000 -0.507412 0.373912
1440026000 0.559324 0.202095
1470025000 -0.113854 -0.553804
1500025000 -0.446786 0.380293
1530024000 0.530318 0.119706
1560024000 -0.226461 -0.433662
1590023000 -0.173582 0.33326
1620023000 0.186972 0.006746
1650022000 0.038347 -0.1165
1680022000 -0.269308 -0.088124
1710021000 0.115816 0.383193
1740021000 0.233101 -0.383458
1770020000 -0.510891 0.012784
1800020000 0.298089 0.438971
1830019000 0.194553 -0.493193
1860019000 -0.552962 0.081836
1890018000 0.362109 0.424028
1920018000 0.151195 -0.531105
1950017000 -0.572858 0.0862
1980017000 0.364663 0.433702
2010016000 0.199556 -0.514984
2040016000 -0.577228 0.039403
2070015000 0.299296 0.482259
2100015000 0.255619 -0.500388
2130014000 -0.597454 -0.037991
2160014000 0.291752 0.523963
2190013000 0.279205 -0.513756
2220013000 -0.610926 -0.038778
2250012000 0.296155 0.522377
2280012000 0.260806 -0.434593
2310011000 -0.563943 -0.020997
2340011000 0.270137 0.456638
2370010000 0.218143 -0.476361
2400010000 -0.553838 0.018888
2430009000 0.314924 0.436531
2460009000 0.132199 -0.490197
2490008000 -0.530489 0.087249
2520008000 0.364008 0.351804
2550007000 0.087492 -0.48529
2580007000 -0.473462 0.134963
2610006000 0.36689 0.283318
2640006000 0.044773 -0.426542
2670005000 -0.381331 0.092576
2700005000 0.202059 0.225923
2730004000 0.146685 -0.239816
2760004000 -0.289085 -0.125718
2790003000 0.000763 0.352018
2820003000 0.36401 -0.178163
2850002000 -0.342496 -0.31058
2880002000 -0.084111 0.446258
2910001000 0.418871 -0.195128
2940001000 -0.340842 -0.322455
2970000000 -0.102218 0.440449
3000000000 0.396088 -0.17984
